***BUSMASTER Ver 2.6.4***
***PROTOCOL CAN***
***NOTE: PLEASE DO NOT EDIT THIS DOCUMENT***
***[START LOGGING SESSION]***
***START DATE AND TIME 28:4:885 4:0:28:000***
***HEX***
***ABSOLUTE MODE***
***START DATABASE FILES (DBF/DBC)***
***END OF DATABASE FILES (DBF/DBC)***
***<Time><Tx/Rx><Channel><CAN ID><Type><DLC><DataBytes>***                                                              
0:0:6:3905 Rx 1 186 s 8 C0 DD 00 00 00 00 00 04 
0:0:6:9137 Rx 1 186 s 8 D0 DD 00 00 00 00 00 04 
0:0:7:4369 Rx 1 186 s 8 D0 DD 00 00 00 00 00 04 
0:0:7:9601 Rx 1 186 s 8 D0 DD 00 00 00 00 00 04 
0:0:8:4833 Rx 1 186 s 8 D0 DD 00 00 00 00 00 04 
0:0:9:0065 Rx 1 186 s 8 D0 DD 00 00 00 00 00 04 
0:0:9:5297 Rx 1 186 s 8 D0 DD 00 00 00 00 00 04 
0:0:10:0529 Rx 1 186 s 8 D0 DD 00 00 00 00 00 04 
0:0:10:5761 Rx 1 186 s 8 D0 DD 00 00 00 00 00 04 
0:0:11:0993 Rx 1 186 s 8 D0 DD 00 00 00 00 00 04 
0:0:11:6225 Rx 1 186 s 8 D0 DD 00 00 00 00 00 04 
0:0:12:1457 Rx 1 186 s 8 D0 DD 00 00 00 00 00 04 
0:0:12:6689 Rx 1 186 s 8 D0 DD 00 00 00 00 00 04 
0:0:13:1921 Rx 1 186 s 8 D0 DD 00 00 00 00 00 04 
0:0:13:7154 Rx 1 186 s 8 40 DF 00 00 00 00 00 04 
0:0:14:2386 Rx 1 186 s 8 40 DF 00 00 00 00 00 04 
0:0:14:7618 Rx 1 186 s 8 D0 DD 00 00 00 00 00 04 
0:0:15:2850 Rx 1 186 s 8 D0 DD 00 00 00 00 00 04 
0:0:15:8082 Rx 1 186 s 8 D0 DD 00 00 00 00 00 04 
0:0:16:3314 Rx 1 186 s 8 D0 DD 00 00 00 00 00 04 
0:0:16:8546 Rx 1 186 s 8 D0 DD 00 00 00 00 00 04 
0:0:17:3779 Rx 1 186 s 8 D0 DD 00 00 00 00 00 04 
0:0:17:9011 Rx 1 186 s 8 D0 DD 00 00 00 00 00 04 
0:0:18:4243 Rx 1 186 s 8 D0 DD 00 00 00 00 00 04 
0:0:18:9475 Rx 1 186 s 8 D0 DD 00 00 00 00 00 04 
0:0:19:4706 Rx 1 186 s 8 D0 DD 00 00 00 00 00 04 
0:0:19:9939 Rx 1 186 s 8 D0 DD 00 00 00 00 00 04 
0:0:20:5171 Rx 1 186 s 8 D0 DD 00 00 00 00 00 04 
0:0:21:0403 Rx 1 186 s 8 D0 DD 00 00 00 00 00 04 
0:0:21:5635 Rx 1 186 s 8 C0 DD 00 00 00 00 00 04 
0:0:22:0867 Rx 1 186 s 8 C0 DD 00 00 00 00 00 04 
0:0:22:6099 Rx 1 186 s 8 D0 DD 00 00 00 00 00 04 
0:0:23:1331 Rx 1 186 s 8 D0 DD 00 00 00 00 00 04 
0:0:23:6563 Rx 1 186 s 8 D0 DD 00 00 00 00 00 04 
0:0:24:1795 Rx 1 186 s 8 D0 DD 00 00 00 00 00 04 
0:0:24:7027 Rx 1 186 s 8 D0 DD 00 00 00 00 00 04 
0:0:25:2259 Rx 1 186 s 8 D0 DD 00 00 00 00 00 04 
0:0:25:7492 Rx 1 186 s 8 D0 DD 00 00 00 00 00 04 
0:0:26:2724 Rx 1 186 s 8 C0 DD 00 00 00 00 00 04 
0:0:26:7956 Rx 1 186 s 8 D0 DD 00 00 00 00 00 04 
0:0:27:3188 Rx 1 186 s 8 D0 DD 00 00 00 00 00 04 
0:0:27:8420 Rx 1 186 s 8 D0 DD 00 00 00 00 00 04 
0:0:28:3652 Rx 1 186 s 8 D0 DD 00 00 00 00 00 04 
0:0:28:8884 Rx 1 186 s 8 D0 DD 00 00 00 00 00 04 
0:0:29:4117 Rx 1 186 s 8 50 DF 00 00 00 00 00 04 
0:0:29:9349 Rx 1 186 s 8 50 DF 00 00 00 00 00 04 
0:0:30:4581 Rx 1 186 s 8 D0 DD 00 00 00 00 00 04 
0:0:30:9813 Rx 1 186 s 8 D0 DD 00 00 00 00 00 04 
0:0:31:5045 Rx 1 186 s 8 D0 DD 00 00 00 00 00 04 
0:0:32:0277 Rx 1 186 s 8 D0 DD 00 00 00 00 00 04 
0:0:32:5509 Rx 1 186 s 8 D0 DD 00 00 00 00 00 04 
0:0:33:0741 Rx 1 186 s 8 D0 DD 00 00 00 00 00 04 
0:0:33:5973 Rx 1 186 s 8 D0 DD 00 00 00 00 00 04 
0:0:34:1206 Rx 1 186 s 8 D0 DD 00 00 00 00 00 04 
0:0:34:6438 Rx 1 186 s 8 D0 DD 00 00 00 00 00 04 
0:0:35:1670 Rx 1 186 s 8 D0 DD 00 00 00 00 00 04 
0:0:35:6902 Rx 1 186 s 8 D0 DD 00 00 00 00 00 04 
0:0:36:2134 Rx 1 186 s 8 D0 DD 00 00 00 00 00 04 
0:0:36:7366 Rx 1 186 s 8 F0 DD 00 00 00 00 00 04 
0:0:37:2599 Rx 1 186 s 8 D0 DD 00 00 00 00 00 04 
0:0:37:7831 Rx 1 186 s 8 D0 DD 00 00 00 00 00 04 
0:0:38:3063 Rx 1 186 s 8 D0 DD 00 00 00 00 00 04 
0:0:38:8295 Rx 1 186 s 8 D0 DD 00 00 00 00 00 04 
0:0:39:3527 Rx 1 186 s 8 D0 DD 00 00 00 00 00 04 
0:0:39:8760 Rx 1 186 s 8 20 DF 00 00 00 00 00 04 
0:0:40:3992 Rx 1 186 s 8 20 DF 00 00 00 00 00 04 
0:0:40:9224 Rx 1 186 s 8 D0 DD 00 00 00 00 00 04 
0:0:41:4456 Rx 1 186 s 8 D0 DD 00 00 00 00 00 04 
0:0:41:9688 Rx 1 186 s 8 D0 DD 00 00 00 00 00 04 
0:0:42:4920 Rx 1 186 s 8 D0 DD 00 00 00 00 00 04 
0:0:43:0152 Rx 1 186 s 8 D0 DD 00 00 00 00 00 04 
0:0:43:5385 Rx 1 186 s 8 D0 DD 00 00 00 00 00 04 
0:0:44:0617 Rx 1 186 s 8 E0 DD 00 00 00 00 00 04 
0:0:44:5849 Rx 1 186 s 8 D0 DD 00 00 00 00 00 04 
0:0:45:1081 Rx 1 186 s 8 D0 DD 00 00 00 00 00 04 
0:0:45:6313 Rx 1 186 s 8 D0 DD 00 00 00 00 00 04 
0:0:46:1545 Rx 1 186 s 8 D0 DD 00 00 00 00 00 04 
0:0:46:6778 Rx 1 186 s 8 D0 DD 00 00 00 00 00 04 
0:0:47:2010 Rx 1 186 s 8 D0 DD 00 00 00 00 00 04 
0:0:47:7242 Rx 1 186 s 8 E0 DE 00 00 00 00 00 04 
0:0:48:2474 Rx 1 186 s 8 E0 DE 00 00 00 00 00 04 
0:0:48:7707 Rx 1 186 s 8 D0 DD 00 00 00 00 00 04 
0:0:49:2939 Rx 1 186 s 8 D0 DD 00 00 00 00 00 04 
0:0:49:8171 Rx 1 186 s 8 D0 DD 00 00 00 00 00 04 
0:0:50:3403 Rx 1 186 s 8 D0 DD 00 00 00 00 00 04 
0:0:50:8635 Rx 1 186 s 8 D0 DD 00 00 00 00 00 04 
0:0:51:3867 Rx 1 186 s 8 C0 DD 00 00 00 00 00 04 
0:0:51:9099 Rx 1 186 s 8 D0 DD 00 00 00 00 00 04 
0:0:52:4331 Rx 1 186 s 8 D0 DD 00 00 00 00 00 04 
0:0:52:9563 Rx 1 186 s 8 D0 DD 00 00 00 00 00 04 
0:0:53:4795 Rx 1 186 s 8 D0 DD 00 00 00 00 00 04 
0:0:54:0027 Rx 1 186 s 8 D0 DD 00 00 00 00 00 04 
0:0:54:5259 Rx 1 186 s 8 D0 DD 00 00 00 00 00 04 
0:0:55:0491 Rx 1 186 s 8 D0 DD 00 00 00 00 00 04 
0:0:55:5724 Rx 1 186 s 8 20 DF 00 00 00 00 00 04 
0:0:56:0956 Rx 1 186 s 8 20 DF 00 00 00 00 00 04 
0:0:56:6188 Rx 1 186 s 8 C0 DD 00 00 00 00 00 04 
0:0:57:1420 Rx 1 186 s 8 D0 DD 00 00 00 00 00 04 
0:0:57:6652 Rx 1 186 s 8 D0 DD 00 00 00 00 00 04 
0:0:58:1884 Rx 1 186 s 8 D0 DD 00 00 00 00 00 04 
0:0:58:7116 Rx 1 186 s 8 D0 DD 00 00 00 00 00 04 
0:0:59:2348 Rx 1 186 s 8 D0 DD 00 00 00 00 00 04 
0:0:59:7581 Rx 1 186 s 8 D0 DD 00 00 00 00 00 04 
0:1:0:2813 Rx 1 186 s 8 D0 DD 00 00 00 00 00 04 
0:1:0:8045 Rx 1 186 s 8 D0 DD 00 00 00 00 00 04 
0:1:1:3277 Rx 1 186 s 8 D0 DD 00 00 00 00 00 04 
0:1:1:8509 Rx 1 186 s 8 D0 DD 00 00 00 00 00 04 
0:1:2:3741 Rx 1 186 s 8 D0 DD 00 00 00 00 00 04 
0:1:2:8974 Rx 1 186 s 8 D0 DD 00 00 00 00 00 04 
0:1:3:4206 Rx 1 186 s 8 D0 DD 00 00 00 00 00 04 
0:1:3:9438 Rx 1 186 s 8 D0 DD 00 00 00 00 00 04 
0:1:4:4670 Rx 1 186 s 8 D0 DD 00 00 00 00 00 04 
0:1:4:9902 Rx 1 186 s 8 D0 DD 00 00 00 00 00 04 
0:1:5:5134 Rx 1 186 s 8 D0 DD 00 00 00 00 00 04 
0:1:6:0366 Rx 1 186 s 8 D0 DD 00 00 00 00 00 04 
0:1:6:5598 Rx 1 186 s 8 D0 DD 00 00 00 00 00 04 
0:1:7:0831 Rx 1 186 s 8 D0 DD 00 00 00 00 00 04 
0:1:7:6063 Rx 1 186 s 8 D0 DD 00 00 00 00 00 04 
0:1:8:1295 Rx 1 186 s 8 D0 DD 00 00 00 00 00 04 
0:1:8:6527 Rx 1 186 s 8 D0 DD 00 00 00 00 00 04 
0:1:9:1759 Rx 1 186 s 8 D0 DD 00 00 00 00 00 04 
0:1:9:6991 Rx 1 186 s 8 D0 DD 00 00 00 00 00 04 
0:1:10:2223 Rx 1 186 s 8 D0 DD 00 00 00 00 00 04 
0:1:10:7455 Rx 1 186 s 8 D0 DD 00 00 00 00 00 04 
0:1:11:2687 Rx 1 186 s 8 D0 DD 00 00 00 00 00 04 
0:1:11:7920 Rx 1 186 s 8 D0 DD 00 00 00 00 00 04 
0:1:12:3152 Rx 1 186 s 8 D0 DD 00 00 00 00 00 04 
0:1:12:8384 Rx 1 186 s 8 D0 DD 00 00 00 00 00 04 
0:1:13:3616 Rx 1 186 s 8 D0 DD 00 00 00 00 00 04 
0:1:13:8849 Rx 1 186 s 8 E0 DE 00 00 00 00 00 04 
0:1:14:4081 Rx 1 186 s 8 E0 DE 00 00 00 00 00 04 
0:1:14:9313 Rx 1 186 s 8 D0 DD 00 00 00 00 00 04 
0:1:15:4545 Rx 1 186 s 8 D0 DD 00 00 00 00 00 04 
0:1:15:9777 Rx 1 186 s 8 D0 DD 00 00 00 00 00 04 
0:1:16:5009 Rx 1 186 s 8 D0 DD 00 00 00 00 00 04 
0:1:17:0241 Rx 1 186 s 8 D0 DD 00 00 00 00 00 04 
0:1:17:5473 Rx 1 186 s 8 D0 DD 00 00 00 00 00 04 
0:1:18:0705 Rx 1 186 s 8 D0 DD 00 00 00 00 00 04 
0:1:18:5937 Rx 1 186 s 8 D0 DD 00 00 00 00 00 04 
0:1:19:1169 Rx 1 186 s 8 D0 DD 00 00 00 00 00 04 
0:1:19:6401 Rx 1 186 s 8 D0 DD 00 00 00 00 00 04 
0:1:20:1633 Rx 1 186 s 8 D0 DD 00 00 00 00 00 04 
0:1:20:6866 Rx 1 186 s 8 D0 DD 00 00 00 00 00 04 
0:1:21:2098 Rx 1 186 s 8 C0 DD 00 00 00 00 00 04 
0:1:21:7330 Rx 1 186 s 8 D0 DF 00 00 00 00 00 04 
0:1:22:2562 Rx 1 186 s 8 D0 DF 00 00 00 00 00 04 
0:1:22:7794 Rx 1 186 s 8 D0 DD 00 00 00 00 00 04 
0:1:23:3026 Rx 1 186 s 8 D0 DD 00 00 00 00 00 04 
0:1:23:8258 Rx 1 186 s 8 D0 DD 00 00 00 00 00 04 
0:1:24:3490 Rx 1 186 s 8 D0 DD 00 00 00 00 00 04 
0:1:24:8722 Rx 1 186 s 8 D0 DD 00 00 00 00 00 04 
0:1:25:3954 Rx 1 186 s 8 D0 DD 00 00 00 00 00 04 
0:1:25:9186 Rx 1 186 s 8 D0 DD 00 00 00 00 00 04 
0:1:26:4418 Rx 1 186 s 8 D0 DD 00 00 00 00 00 04 
0:1:26:9651 Rx 1 186 s 8 D0 DD 00 00 00 00 00 04 
0:1:27:4883 Rx 1 186 s 8 D0 DD 00 00 00 00 00 04 
0:1:28:0115 Rx 1 186 s 8 D0 DD 00 00 00 00 00 04 
0:1:28:5347 Rx 1 186 s 8 D0 DD 00 00 00 00 00 04 
0:1:29:0579 Rx 1 186 s 8 D0 DD 00 00 00 00 00 04 
0:1:29:5811 Rx 1 186 s 8 D0 DD 00 00 00 00 00 04 
0:1:30:1043 Rx 1 186 s 8 D0 DD 00 00 00 00 00 04 
0:1:30:6275 Rx 1 186 s 8 D0 DD 00 00 00 00 00 04 
0:1:31:1507 Rx 1 186 s 8 D0 DD 00 00 00 00 00 04 
0:1:31:6739 Rx 1 186 s 8 D0 DD 00 00 00 00 00 04 
0:1:32:1972 Rx 1 186 s 8 E0 DF 00 00 00 00 00 04 
0:1:32:7204 Rx 1 186 s 8 E0 DF 00 00 00 00 00 04 
0:1:33:2436 Rx 1 186 s 8 D0 DD 00 00 00 00 00 04 
0:1:33:7668 Rx 1 186 s 8 D0 DD 00 00 00 00 00 04 
0:1:34:2900 Rx 1 186 s 8 D0 DD 00 00 00 00 00 04 
0:1:34:8132 Rx 1 186 s 8 D0 DD 00 00 00 00 00 04 
0:1:35:3364 Rx 1 186 s 8 D0 DD 00 00 00 00 00 04 
0:1:35:8596 Rx 1 186 s 8 D0 DD 00 00 00 00 00 04 
0:1:36:3828 Rx 1 186 s 8 D0 DD 00 00 00 00 00 04 
0:1:36:9060 Rx 1 186 s 8 D0 DD 00 00 00 00 00 04 
0:1:37:4292 Rx 1 186 s 8 D0 DD 00 00 00 00 00 04 
0:1:37:9524 Rx 1 186 s 8 D0 DD 00 00 00 00 00 04 
0:1:38:4757 Rx 1 186 s 8 D0 DD 00 00 00 00 00 04 
0:1:38:9989 Rx 1 186 s 8 D0 DD 00 00 00 00 00 04 
0:1:39:5221 Rx 1 186 s 8 D0 DD 00 00 00 00 00 04 
0:1:40:0453 Rx 1 186 s 8 40 DF 00 00 00 00 00 04 
0:1:40:5685 Rx 1 186 s 8 40 DF 00 00 00 00 00 04 
0:1:41:0917 Rx 1 186 s 8 D0 DD 00 00 00 00 00 04 
0:1:41:6149 Rx 1 186 s 8 D0 DD 00 00 00 00 00 04 
0:1:42:1381 Rx 1 186 s 8 D0 DD 00 00 00 00 00 04 
0:1:42:6613 Rx 1 186 s 8 D0 DD 00 00 00 00 00 04 
0:1:43:1845 Rx 1 186 s 8 D0 DD 00 00 00 00 00 04 
0:1:43:7077 Rx 1 186 s 8 D0 DD 00 00 00 00 00 04 
0:1:44:2310 Rx 1 186 s 8 D0 DD 00 00 00 00 00 04 
0:1:44:7542 Rx 1 186 s 8 D0 DD 00 00 00 00 00 04 
0:1:45:2774 Rx 1 186 s 8 D0 DD 00 00 00 00 00 04 
0:1:45:8006 Rx 1 186 s 8 D0 DD 00 00 00 00 00 04 
0:1:46:3238 Rx 1 186 s 8 D0 DD 00 00 00 00 00 04 
0:1:46:8470 Rx 1 186 s 8 D0 DD 00 00 00 00 00 04 
0:1:47:3702 Rx 1 186 s 8 D0 DD 00 00 00 00 00 04 
0:1:47:8934 Rx 1 186 s 8 D0 DD 00 00 2F 00 00 05 
0:1:48:4166 Rx 1 186 s 8 D0 DD 00 00 2F 00 00 05 
0:1:48:9398 Rx 1 186 s 8 D0 DD 00 00 31 00 00 05 
0:1:49:4629 Rx 1 186 s 8 D0 DD 00 00 31 00 00 05 
0:1:49:9861 Rx 1 186 s 8 D0 DD 00 00 31 00 00 05 
0:1:50:5093 Rx 1 186 s 8 E0 DF 00 00 31 00 00 05 
0:1:51:0325 Rx 1 186 s 8 E0 DF 00 00 31 00 00 05 
0:1:51:5556 Rx 1 186 s 8 E0 DD 00 00 32 00 00 05 
0:1:52:0788 Rx 1 186 s 8 00 DE 00 00 32 00 00 05 
0:1:52:6020 Rx 1 186 s 8 D0 DD 00 00 32 00 00 05 
0:1:53:1252 Rx 1 186 s 8 E0 DF 00 00 33 00 00 05 
0:1:53:6483 Rx 1 186 s 8 E0 DF 00 00 33 00 00 05 
0:1:54:1715 Rx 1 186 s 8 D0 DD 00 00 33 00 00 05 
0:1:54:6947 Rx 1 186 s 8 D0 DD 00 00 33 00 00 05 
0:1:55:2178 Rx 1 186 s 8 D0 DD 00 00 33 00 00 05 
0:1:55:7410 Rx 1 186 s 8 50 DF 00 00 34 00 00 05 
0:1:56:2642 Rx 1 186 s 8 50 DF 00 00 34 00 00 05 
0:1:56:7874 Rx 1 186 s 8 D0 DD 00 00 34 00 00 05 
0:1:57:3105 Rx 1 186 s 8 E0 DD 00 00 35 00 00 05 
0:1:57:8337 Rx 1 186 s 8 60 DE 00 00 35 00 00 05 
0:1:58:3569 Rx 1 186 s 8 E0 DF 00 00 36 00 00 05 
0:1:58:8801 Rx 1 186 s 8 E0 DF 00 00 36 00 00 05 
0:1:59:4032 Rx 1 186 s 8 D0 DD 00 00 36 00 00 05 
0:1:59:9264 Rx 1 186 s 8 D0 DD 00 00 36 00 00 05 
0:2:0:4496 Rx 1 186 s 8 00 DE 00 00 36 00 00 05 
0:2:0:9728 Rx 1 186 s 8 50 DF 00 00 36 00 00 05 
0:2:1:4959 Rx 1 186 s 8 50 DF 00 00 36 00 00 05 
0:2:2:0191 Rx 1 186 s 8 D0 DD 00 00 36 00 00 05 
0:2:2:5423 Rx 1 186 s 8 D0 DD 00 00 36 00 00 05 
0:2:3:0655 Rx 1 186 s 8 E0 DD 00 00 36 00 00 05 
0:2:3:5887 Rx 1 186 s 8 E0 DF 00 00 36 00 00 05 
0:2:4:1118 Rx 1 186 s 8 E0 DF 00 00 36 00 00 05 
0:2:4:6350 Rx 1 186 s 8 D0 DD 00 00 36 00 00 05 
0:2:5:1582 Rx 1 186 s 8 E0 DD 00 00 36 00 00 05 
0:2:5:6814 Rx 1 186 s 8 D0 DD 00 00 36 00 00 05 
0:2:6:2046 Rx 1 186 s 8 50 DF 00 00 36 00 00 05 
0:2:6:7277 Rx 1 186 s 8 50 DF 00 00 36 00 00 05 
0:2:7:2509 Rx 1 186 s 8 D0 DD 00 00 36 00 00 05 
0:2:7:7741 Rx 1 186 s 8 F0 DD 00 00 36 00 00 05 
0:2:8:2973 Rx 1 186 s 8 20 DE 00 00 36 00 00 05 
0:2:8:8205 Rx 1 186 s 8 50 DF 00 00 36 00 00 05 
0:2:9:3437 Rx 1 186 s 8 50 DF 00 00 36 00 00 05 
0:2:9:8668 Rx 1 186 s 8 D0 DD 00 00 36 00 00 05 
0:2:10:3900 Rx 1 186 s 8 D0 DD 00 00 36 00 00 05 
0:2:10:9132 Rx 1 186 s 8 30 DE 00 00 36 00 00 05 
0:2:11:4364 Rx 1 186 s 8 60 DF 00 00 36 00 00 05 
0:2:11:9595 Rx 1 186 s 8 60 DF 00 00 36 00 00 05 
0:2:12:4827 Rx 1 186 s 8 D0 DD 00 00 36 00 00 05 
0:2:13:0059 Rx 1 186 s 8 D0 DD 00 00 36 00 00 05 
0:2:13:5291 Rx 1 186 s 8 20 DE 00 00 36 00 00 05 
0:2:14:0523 Rx 1 186 s 8 20 E0 00 00 36 00 00 05 
0:2:14:5754 Rx 1 186 s 8 20 E0 00 00 36 00 00 05 
0:2:15:0986 Rx 1 186 s 8 D0 DD 00 00 36 00 00 05 
0:2:15:6218 Rx 1 186 s 8 D0 DD 00 00 36 00 00 05 
0:2:16:1449 Rx 1 186 s 8 D0 DD 00 00 36 00 00 05 
0:2:16:6681 Rx 1 186 s 8 50 DF 00 00 36 00 00 05 
0:2:17:1913 Rx 1 186 s 8 50 DF 00 00 36 00 00 05 
0:2:17:7145 Rx 1 186 s 8 D0 DD 00 00 37 00 00 05 
0:2:18:2376 Rx 1 186 s 8 D0 DD 00 00 37 00 00 05 
0:2:18:7608 Rx 1 186 s 8 D0 DD 00 00 38 00 00 05 
0:2:19:2840 Rx 1 186 s 8 50 DF 00 00 38 00 00 05 
0:2:19:8072 Rx 1 186 s 8 50 DF 00 00 38 00 00 05 
0:2:20:3304 Rx 1 186 s 8 00 DE 00 00 39 00 00 05 
0:2:20:8536 Rx 1 186 s 8 D0 DD 00 00 39 00 00 05 
0:2:21:3767 Rx 1 186 s 8 D0 DD 00 00 39 00 00 05 
0:2:21:8999 Rx 1 186 s 8 F0 DF 00 00 3A 00 00 05 
0:2:22:4231 Rx 1 186 s 8 F0 DF 00 00 3A 00 00 05 
0:2:22:9462 Rx 1 186 s 8 20 DE 00 00 3A 00 00 05 
0:2:23:4694 Rx 1 186 s 8 D0 DD 00 00 3B 00 00 05 
0:2:23:9926 Rx 1 186 s 8 E0 DD 00 00 3B 00 00 05 
0:2:24:5158 Rx 1 186 s 8 60 DF 00 00 3B 00 00 05 
0:2:25:0389 Rx 1 186 s 8 60 DF 00 00 3B 00 00 05 
0:2:25:5621 Rx 1 186 s 8 F0 DD 00 00 3B 00 00 05 
0:2:26:0853 Rx 1 186 s 8 E0 DD 00 00 3B 00 00 05 
0:2:26:6084 Rx 1 186 s 8 D0 DD 00 00 3B 00 00 05 
0:2:27:1316 Rx 1 186 s 8 60 DF 00 00 3B 00 00 05 
0:2:27:6548 Rx 1 186 s 8 60 DF 00 00 3B 00 00 05 
0:2:28:1780 Rx 1 186 s 8 00 DE 00 00 3B 00 00 05 
0:2:28:7011 Rx 1 186 s 8 E0 DD 00 00 3B 00 00 05 
0:2:29:2243 Rx 1 186 s 8 00 DE 00 00 3B 00 00 05 
0:2:29:7475 Rx 1 186 s 8 00 E0 00 00 3B 00 00 05 
0:2:30:2707 Rx 1 186 s 8 00 E0 00 00 3B 00 00 05 
0:2:30:7939 Rx 1 186 s 8 20 DE 00 00 3B 00 00 05 
0:2:31:3170 Rx 1 186 s 8 40 DE 00 00 3B 00 00 05 
0:2:31:8402 Rx 1 186 s 8 F0 DD 00 00 3B 00 00 05 
0:2:32:3634 Rx 1 186 s 8 70 DF 00 00 3B 00 00 05 
0:2:32:8866 Rx 1 186 s 8 70 DF 00 00 3B 00 00 05 
0:2:33:4098 Rx 1 186 s 8 50 DE 00 00 3B 00 00 05 
0:2:33:9329 Rx 1 186 s 8 60 DE 00 00 3B 00 00 05 
0:2:34:4561 Rx 1 186 s 8 50 DE 00 00 3B 00 00 05 
0:2:34:9793 Rx 1 186 s 8 90 DF 00 00 3B 00 00 05 
0:2:35:5025 Rx 1 186 s 8 90 DF 00 00 3B 00 00 05 
0:2:36:0257 Rx 1 186 s 8 30 DE 00 00 3B 00 00 05 
0:2:36:5488 Rx 1 186 s 8 30 DE 00 00 3B 00 00 05 
0:2:37:0720 Rx 1 186 s 8 40 DE 00 00 3B 00 00 05 
0:2:37:5952 Rx 1 186 s 8 30 E0 00 00 3B 00 00 05 
0:2:38:1184 Rx 1 186 s 8 30 E0 00 00 3B 00 00 05 
0:2:38:6416 Rx 1 186 s 8 F0 DD 00 00 3B 00 00 05 
0:2:39:1647 Rx 1 186 s 8 00 DE 00 00 3B 00 00 05 
0:2:39:6879 Rx 1 186 s 8 F0 DD 00 00 3B 00 00 05 
0:2:40:2111 Rx 1 186 s 8 40 E0 00 00 3B 00 00 05 
0:2:40:7342 Rx 1 186 s 8 40 E0 00 00 3B 00 00 05 
0:2:41:2574 Rx 1 186 s 8 30 DE 00 00 3B 00 00 05 
0:2:41:7806 Rx 1 186 s 8 20 DE 00 00 3B 00 00 05 
0:2:42:3037 Rx 1 186 s 8 E0 DD 00 00 3B 00 00 05 
0:2:42:8300 Rx 1 186 s 8 20 E0 00 00 3B 00 00 05 
0:2:43:3501 Rx 1 186 s 8 20 E0 00 00 3B 00 00 05 
0:2:43:8733 Rx 1 186 s 8 F0 DD 00 00 3B 00 00 05 
0:2:44:3964 Rx 1 186 s 8 F0 DD 00 00 3B 00 00 05 
0:2:44:9196 Rx 1 186 s 8 E0 DD 00 00 3B 00 00 05 
0:2:45:4428 Rx 1 186 s 8 70 DF 00 00 3B 00 00 05 
0:2:45:9659 Rx 1 186 s 8 70 DF 00 00 3B 00 00 05 
0:2:46:4891 Rx 1 186 s 8 50 DE 00 00 3B 00 00 05 
0:2:47:0122 Rx 1 186 s 8 50 DE 00 00 3B 00 00 05 
0:2:47:5354 Rx 1 186 s 8 30 DE 00 00 3B 00 00 05 
0:2:48:0586 Rx 1 186 s 8 80 DF 00 00 3B 00 00 05 
0:2:48:5818 Rx 1 186 s 8 80 DF 00 00 3B 00 00 05 
0:2:49:1049 Rx 1 186 s 8 20 DE 00 00 3B 00 00 05 
0:2:49:6281 Rx 1 186 s 8 60 DE 00 00 3B 00 00 05 
0:2:50:1513 Rx 1 186 s 8 40 DE 00 00 3B 00 00 05 
0:2:50:6744 Rx 1 186 s 8 A0 DF 00 00 3B 00 00 05 
0:2:51:1976 Rx 1 186 s 8 A0 DF 00 00 3B 00 00 05 
0:2:51:7208 Rx 1 186 s 8 60 DE 00 00 3B 00 00 05 
0:2:52:2440 Rx 1 186 s 8 60 DE 00 00 3B 00 00 05 
0:2:52:7671 Rx 1 186 s 8 30 DE 00 00 3B 00 00 05 
0:2:53:2903 Rx 1 186 s 8 90 DF 00 00 3B 00 00 05 
0:2:53:8134 Rx 1 186 s 8 90 DF 00 00 3B 00 00 05 
0:2:54:3366 Rx 1 186 s 8 30 DE 00 00 3B 00 00 05 
0:2:54:8598 Rx 1 186 s 8 40 DE 00 00 3B 00 00 05 
0:2:55:3830 Rx 1 186 s 8 70 DE 00 00 3B 00 00 05 
0:2:55:9061 Rx 1 186 s 8 80 DF 00 00 3B 00 00 05 
0:2:56:4293 Rx 1 186 s 8 80 DF 00 00 3B 00 00 05 
0:2:56:9525 Rx 1 186 s 8 F0 DD 00 00 3B 00 00 05 
0:2:57:4757 Rx 1 186 s 8 E0 DD 00 00 3B 00 00 05 
0:2:57:9988 Rx 1 186 s 8 00 DE 00 00 3B 00 00 05 
0:2:58:5220 Rx 1 186 s 8 20 E0 00 00 3B 00 00 05 
0:2:59:0452 Rx 1 186 s 8 20 E0 00 00 3B 00 00 05 
0:2:59:5684 Rx 1 186 s 8 20 DE 00 00 3B 00 00 05 
0:3:0:0916 Rx 1 186 s 8 00 DE 00 00 3B 00 00 05 
0:3:0:6148 Rx 1 186 s 8 00 DE 00 00 3B 00 00 05 
0:3:1:1379 Rx 1 186 s 8 E0 DF 00 00 3B 00 00 05 
0:3:1:6611 Rx 1 186 s 8 E0 DF 00 00 3B 00 00 05 
0:3:2:1843 Rx 1 186 s 8 30 DE 00 00 3B 00 00 05 
0:3:2:7075 Rx 1 186 s 8 20 DE 00 00 3B 00 00 05 
0:3:3:2307 Rx 1 186 s 8 00 DE 00 00 3B 00 00 05 
0:3:3:7539 Rx 1 186 s 8 E0 DF 00 00 3B 00 00 05 
0:3:4:2770 Rx 1 186 s 8 E0 DF 00 00 3B 00 00 05 
0:3:4:8002 Rx 1 186 s 8 20 DE 00 00 3B 00 00 05 
0:3:5:3234 Rx 1 186 s 8 E0 DD 00 00 3B 00 00 05 
0:3:5:8466 Rx 1 186 s 8 20 DE 00 00 3B 00 00 02 
0:3:6:3698 Rx 1 186 s 8 70 DF 00 00 3B 00 00 02 
0:3:6:8930 Rx 1 186 s 8 70 DF 00 00 3B 00 00 02 
0:3:7:4162 Rx 1 186 s 8 E0 DD 00 00 3B 00 00 02 
0:3:7:9394 Rx 1 186 s 8 40 DE 00 00 3B 00 00 02 
0:3:8:4626 Rx 1 186 s 8 D0 DD 00 00 3B 00 00 02 
0:3:8:9858 Rx 1 186 s 8 50 DF 00 00 3B 00 00 02 
0:3:9:5089 Rx 1 186 s 8 50 DF 00 00 3B 00 00 02 
0:3:10:0321 Rx 1 186 s 8 D0 DD 00 00 3B 00 00 02 
0:3:10:5553 Rx 1 186 s 8 D0 DD 00 00 3B 00 00 02 
0:3:11:0785 Rx 1 186 s 8 D0 DD 00 00 3B 00 00 02 
0:3:11:6017 Rx 1 186 s 8 E0 DD 00 00 3B 00 00 02 
0:3:12:1249 Rx 1 186 s 8 E0 DD 00 00 3B 00 00 02 
0:3:12:6481 Rx 1 186 s 8 E0 DD 00 00 3C 00 00 02 
0:3:13:1713 Rx 1 186 s 8 D0 DD 00 00 3C 00 00 02 
0:3:13:6945 Rx 1 186 s 8 00 DE 00 00 3C 00 00 02 
0:3:14:2177 Rx 1 186 s 8 E0 DD 00 00 3C 00 00 02 
0:3:14:7409 Rx 1 186 s 8 E0 DD 00 00 3C 00 00 02 
0:3:15:2641 Rx 1 186 s 8 E0 DD 00 00 3C 00 00 02 
0:3:15:7873 Rx 1 186 s 8 F0 DD 00 00 3C 00 00 02 
0:3:16:3105 Rx 1 186 s 8 D0 DD 00 00 3C 00 00 02 
0:3:16:8337 Rx 1 186 s 8 B0 DF 00 00 3C 00 00 02 
0:3:17:3569 Rx 1 186 s 8 B0 DF 00 00 3C 00 00 02 
0:3:17:8801 Rx 1 186 s 8 00 DE 00 00 3C 00 00 02 
0:3:18:4033 Rx 1 186 s 8 E0 DD 00 00 3C 00 00 02 
0:3:18:9265 Rx 1 186 s 8 70 DE 00 00 3C 00 00 02 
0:3:19:4497 Rx 1 186 s 8 00 DE 00 00 3D 00 00 02 
0:3:19:9729 Rx 1 186 s 8 00 DE 00 00 3D 00 00 02 
0:3:20:4961 Rx 1 186 s 8 50 DE 00 00 3D 00 00 02 
0:3:21:0193 Rx 1 186 s 8 50 DE 00 00 3D 00 00 02 
0:3:21:5425 Rx 1 186 s 8 20 DE 00 00 3D 00 00 02 
0:3:22:0657 Rx 1 186 s 8 D0 DD 00 00 3D 00 00 02 
0:3:22:5889 Rx 1 186 s 8 D0 DD 00 00 3D 00 00 02 
0:3:23:1121 Rx 1 186 s 8 E0 DD 00 00 3D 00 00 02 
0:3:23:6353 Rx 1 186 s 8 E0 DD 00 00 3D 00 00 02 
0:3:24:1585 Rx 1 186 s 8 D0 DD 00 00 3D 00 00 02 
0:3:24:6816 Rx 1 186 s 8 D0 DD 00 00 3D 00 00 02 
0:3:25:2048 Rx 1 186 s 8 D0 DD 00 00 3D 00 00 02 
0:3:25:7280 Rx 1 186 s 8 D0 DD 00 00 3D 00 00 02 
0:3:26:2512 Rx 1 186 s 8 D0 DD 00 00 3D 00 00 02 
0:3:26:7744 Rx 1 186 s 8 D0 DD 00 00 3D 00 00 02 
0:3:27:2976 Rx 1 186 s 8 50 DF 00 00 3E 00 00 02 
0:3:27:8208 Rx 1 186 s 8 50 DF 00 00 3E 00 00 02 
0:3:28:3440 Rx 1 186 s 8 D0 DD 00 00 3E 00 00 02 
0:3:28:8672 Rx 1 186 s 8 D0 DD 00 00 3E 00 00 02 
0:3:29:3903 Rx 1 186 s 8 D0 DD 00 00 3E 00 00 02 
0:3:29:9135 Rx 1 186 s 8 D0 DD 00 00 3E 00 00 02 
0:3:30:4367 Rx 1 186 s 8 D0 DD 00 00 3E 00 00 02 
0:3:30:9599 Rx 1 186 s 8 D0 DD 00 00 3E 00 00 02 
0:3:31:4831 Rx 1 186 s 8 D0 DD 00 00 3E 00 00 02 
0:3:32:0063 Rx 1 186 s 8 D0 DD 00 00 3E 00 00 02 
0:3:32:5295 Rx 1 186 s 8 D0 DD 00 00 3E 00 00 02 
0:3:33:0527 Rx 1 186 s 8 D0 DD 00 00 3E 00 00 02 
0:3:33:5759 Rx 1 186 s 8 D0 DD 00 00 3E 00 00 02 
0:3:34:0991 Rx 1 186 s 8 D0 DD 00 00 3E 00 00 02 
0:3:34:6223 Rx 1 186 s 8 D0 DD 00 00 3F 00 00 02 
0:3:35:1455 Rx 1 186 s 8 50 DF 00 00 3F 00 00 02 
0:3:35:6686 Rx 1 186 s 8 50 DF 00 00 3F 00 00 02 
0:3:36:1918 Rx 1 186 s 8 D0 DD 00 00 3F 00 00 02 
0:3:36:7150 Rx 1 186 s 8 D0 DD 00 00 3F 00 00 02 
0:3:37:2382 Rx 1 186 s 8 D0 DD 00 00 3F 00 00 02 
0:3:37:7614 Rx 1 186 s 8 D0 DD 00 00 3F 00 00 02 
0:3:38:2846 Rx 1 186 s 8 D0 DD 00 00 3F 00 00 02 
0:3:38:8078 Rx 1 186 s 8 D0 DD 00 00 3F 00 00 02 
0:3:39:3310 Rx 1 186 s 8 D0 DD 00 00 3F 00 00 02 
0:3:39:8542 Rx 1 186 s 8 D0 DD 00 00 3F 00 00 02 
0:3:40:3774 Rx 1 186 s 8 D0 DD 00 00 3F 00 00 02 
0:3:40:9006 Rx 1 186 s 8 D0 DD 00 00 3F 00 00 02 
0:3:41:4238 Rx 1 186 s 8 D0 DD 00 00 3F 00 00 02 
0:3:41:9469 Rx 1 186 s 8 D0 DD 00 00 3F 00 00 02 
0:3:42:4701 Rx 1 186 s 8 D0 DD 00 00 40 00 00 02 
0:3:42:9933 Rx 1 186 s 8 E0 DF 00 00 40 00 00 02 
0:3:43:5165 Rx 1 186 s 8 E0 DF 00 00 40 00 00 02 
0:3:44:0397 Rx 1 186 s 8 D0 DD 00 00 40 00 00 02 
0:3:44:5629 Rx 1 186 s 8 D0 DD 00 00 40 00 00 02 
0:3:45:0861 Rx 1 186 s 8 C0 DD 00 00 40 00 00 02 
0:3:45:6093 Rx 1 186 s 8 C0 DD 00 00 40 00 00 02 
0:3:46:1325 Rx 1 186 s 8 C0 DD 00 00 40 00 00 02 
0:3:46:6557 Rx 1 186 s 8 D0 DD 00 00 40 00 00 02 
0:3:47:1789 Rx 1 186 s 8 D0 DD 00 00 40 00 00 02 
0:3:47:7020 Rx 1 186 s 8 C0 DD 00 00 40 00 00 02 
0:3:48:2252 Rx 1 186 s 8 D0 DD 00 00 40 00 00 02 
0:3:48:7484 Rx 1 186 s 8 D0 DD 00 00 40 00 00 02 
0:3:49:2716 Rx 1 186 s 8 D0 DD 00 00 40 00 00 02 
0:3:49:7947 Rx 1 186 s 8 D0 DD 00 00 40 00 00 05 
0:3:50:3179 Rx 1 186 s 8 D0 DD 00 00 40 00 00 05 
0:3:50:8411 Rx 1 186 s 8 50 DF 00 00 40 00 00 05 
0:3:51:3642 Rx 1 186 s 8 50 DF 00 00 40 00 00 05 
0:3:51:8874 Rx 1 186 s 8 D0 DD 00 00 40 00 00 05 
0:3:52:4105 Rx 1 186 s 8 D0 DD 00 00 40 00 00 05 
0:3:52:9337 Rx 1 186 s 8 D0 DD 00 00 40 00 00 05 
0:3:53:4569 Rx 1 186 s 8 50 DF 00 00 40 00 00 05 
0:3:53:9800 Rx 1 186 s 8 50 DF 00 00 40 00 00 05 
0:3:54:5032 Rx 1 186 s 8 D0 DD 00 00 40 00 00 05 
0:3:55:0263 Rx 1 186 s 8 D0 DD 00 00 40 00 00 05 
0:3:55:5495 Rx 1 186 s 8 D0 DD 00 00 40 00 00 05 
0:3:56:0726 Rx 1 186 s 8 D0 DD 00 00 40 00 00 02 
0:3:56:5958 Rx 1 186 s 8 D0 DD 00 00 40 00 00 02 
0:3:57:1190 Rx 1 186 s 8 D0 DD 00 00 40 00 00 02 
0:3:57:6422 Rx 1 186 s 8 D0 DD 00 00 40 00 00 02 
0:3:58:1653 Rx 1 186 s 8 D0 DD 00 00 40 00 00 02 
0:3:58:6885 Rx 1 186 s 8 D0 DD 00 00 40 00 00 02 
0:3:59:2117 Rx 1 186 s 8 D0 DD 00 00 40 00 00 02 
0:3:59:7349 Rx 1 186 s 8 D0 DD 00 00 40 00 00 02 
0:4:0:2581 Rx 1 186 s 8 F0 DD 00 00 41 00 00 02 
0:4:0:7812 Rx 1 186 s 8 D0 DD 00 00 41 00 00 02 
0:4:1:3044 Rx 1 186 s 8 E0 DD 00 00 41 00 00 02 
0:4:1:8276 Rx 1 186 s 8 E0 DD 00 00 41 00 00 02 
0:4:2:3508 Rx 1 186 s 8 D0 DD 00 00 41 00 00 02 
0:4:2:8740 Rx 1 186 s 8 E0 DD 00 00 41 00 00 02 
0:4:3:3972 Rx 1 186 s 8 D0 DD 00 00 41 00 00 02 
0:4:3:9204 Rx 1 186 s 8 50 DF 00 00 41 00 00 02 
0:4:4:4436 Rx 1 186 s 8 50 DF 00 00 41 00 00 02 
***END DATE AND TIME ***
***[STOP LOGGING SESSION]***
