***BUSMASTER Ver 2.6.4***
***PROTOCOL CAN***
***NOTE: PLEASE DO NOT EDIT THIS DOCUMENT***
***[START LOGGING SESSION]***
***START DATE AND TIME 28:4:105 4:6:10:000***
***HEX***
***ABSOLUTE MODE***
***START DATABASE FILES (DBF/DBC)***
***END OF DATABASE FILES (DBF/DBC)***
***<Time><Tx/Rx><Channel><CAN ID><Type><DLC><DataBytes>***                                                              
0:0:8:7283 Rx 1 186 s 8 70 DE 00 00 3B 00 00 02 
0:0:9:2515 Rx 1 186 s 8 80 DE 00 00 3B 00 00 05 
0:0:9:7747 Rx 1 186 s 8 80 DE 00 00 3B 00 00 05 
0:0:10:2979 Rx 1 186 s 8 80 DE 00 00 3B 00 00 05 
0:0:10:8211 Rx 1 186 s 8 90 DE 00 00 3B 00 00 05 
0:0:11:3443 Rx 1 186 s 8 90 DE 00 00 3B 00 00 05 
0:0:11:8675 Rx 1 186 s 8 80 DE 00 00 3B 00 00 05 
0:0:12:3907 Rx 1 186 s 8 90 DE 00 00 3B 00 00 05 
0:0:12:9139 Rx 1 186 s 8 80 DE 00 00 3B 00 00 05 
0:0:13:4371 Rx 1 186 s 8 00 E0 00 00 3B 00 00 05 
0:0:13:9603 Rx 1 186 s 8 00 E0 00 00 3B 00 00 05 
0:0:14:4835 Rx 1 186 s 8 80 DE 00 00 3B 00 00 05 
0:0:15:0067 Rx 1 186 s 8 80 DE 00 00 3B 00 00 05 
0:0:15:5299 Rx 1 186 s 8 80 DE 00 00 3B 00 00 05 
0:0:16:0531 Rx 1 186 s 8 F0 DF 00 00 3B 00 00 05 
0:0:16:5763 Rx 1 186 s 8 F0 DF 00 00 3B 00 00 05 
0:0:17:0995 Rx 1 186 s 8 80 DE 00 00 3B 00 00 05 
0:0:17:6227 Rx 1 186 s 8 80 DE 00 00 3B 00 00 05 
0:0:18:1458 Rx 1 186 s 8 60 DE 00 00 3B 00 00 05 
0:0:18:6690 Rx 1 186 s 8 E0 DF 00 00 3B 00 00 05 
0:0:19:1922 Rx 1 186 s 8 E0 DF 00 00 3B 00 00 05 
0:0:19:7154 Rx 1 186 s 8 80 DE 00 00 3B 00 00 05 
0:0:20:2386 Rx 1 186 s 8 80 DE 00 00 3B 00 00 05 
0:0:20:7618 Rx 1 186 s 8 80 DE 00 00 3B 00 00 05 
0:0:21:2850 Rx 1 186 s 8 F0 DF 00 00 3B 00 00 05 
0:0:21:8081 Rx 1 186 s 8 F0 DF 00 00 3B 00 00 05 
0:0:22:3313 Rx 1 186 s 8 80 DE 00 00 3B 00 00 05 
0:0:22:8545 Rx 1 186 s 8 80 DE 00 00 3B 00 00 05 
0:0:23:3777 Rx 1 186 s 8 80 DE 00 00 3B 00 00 05 
0:0:23:9009 Rx 1 186 s 8 F0 DF 00 00 3B 00 00 05 
0:0:24:4241 Rx 1 186 s 8 F0 DF 00 00 3B 00 00 05 
0:0:24:9473 Rx 1 186 s 8 80 DE 00 00 3B 00 00 05 
0:0:25:4705 Rx 1 186 s 8 80 DE 00 00 3B 00 00 05 
0:0:25:9937 Rx 1 186 s 8 80 DE 00 00 3B 00 00 05 
0:0:26:5169 Rx 1 186 s 8 20 E0 00 00 3B 00 00 05 
0:0:27:0401 Rx 1 186 s 8 20 E0 00 00 3B 00 00 05 
0:0:27:5633 Rx 1 186 s 8 80 DE 00 00 3B 00 00 05 
0:0:28:0864 Rx 1 186 s 8 80 DE 00 00 3B 00 00 05 
0:0:28:6096 Rx 1 186 s 8 80 DE 00 00 3B 00 00 05 
0:0:29:1329 Rx 1 186 s 8 20 E0 00 00 3B 00 00 05 
0:0:29:6561 Rx 1 186 s 8 20 E0 00 00 3B 00 00 05 
0:0:30:1793 Rx 1 186 s 8 80 DE 00 00 3B 00 00 05 
0:0:30:7025 Rx 1 186 s 8 80 DE 00 00 3B 00 00 05 
0:0:31:2256 Rx 1 186 s 8 90 DE 00 00 3B 00 00 05 
0:0:31:7489 Rx 1 186 s 8 00 E0 00 00 3B 00 00 05 
0:0:32:2720 Rx 1 186 s 8 00 E0 00 00 3B 00 00 05 
0:0:32:7952 Rx 1 186 s 8 80 DE 00 00 3B 00 00 05 
0:0:33:3184 Rx 1 186 s 8 80 DE 00 00 3B 00 00 05 
0:0:33:8416 Rx 1 186 s 8 A0 DE 00 00 3B 00 00 05 
0:0:34:3648 Rx 1 186 s 8 F0 DF 00 00 3B 00 00 05 
0:0:34:8880 Rx 1 186 s 8 F0 DF 00 00 3B 00 00 05 
0:0:35:4112 Rx 1 186 s 8 80 DE 00 00 3B 00 00 05 
0:0:35:9344 Rx 1 186 s 8 A0 DE 00 00 3B 00 00 05 
0:0:36:4576 Rx 1 186 s 8 90 DE 00 00 3B 00 00 05 
0:0:36:9808 Rx 1 186 s 8 30 E0 00 00 3B 00 00 05 
0:0:37:5040 Rx 1 186 s 8 30 E0 00 00 3B 00 00 05 
0:0:38:0272 Rx 1 186 s 8 A0 DE 00 00 3B 00 00 05 
0:0:38:5504 Rx 1 186 s 8 90 DE 00 00 3B 00 00 05 
0:0:39:0736 Rx 1 186 s 8 80 DE 00 00 3B 00 00 05 
0:0:39:5968 Rx 1 186 s 8 F0 DF 00 00 3B 00 00 05 
0:0:40:1200 Rx 1 186 s 8 F0 DF 00 00 3B 00 00 05 
0:0:40:6432 Rx 1 186 s 8 90 DE 00 00 3B 00 00 05 
0:0:41:1664 Rx 1 186 s 8 90 DE 00 00 3B 00 00 05 
0:0:41:6896 Rx 1 186 s 8 80 DE 00 00 3B 00 00 05 
0:0:42:2128 Rx 1 186 s 8 20 E0 00 00 3B 00 00 05 
0:0:42:7360 Rx 1 186 s 8 20 E0 00 00 3B 00 00 05 
0:0:43:2592 Rx 1 186 s 8 80 DE 00 00 3B 00 00 05 
0:0:43:7824 Rx 1 186 s 8 90 DE 00 00 3B 00 00 05 
0:0:44:3056 Rx 1 186 s 8 90 DE 00 00 3B 00 00 05 
0:0:44:8288 Rx 1 186 s 8 20 E0 00 00 3B 00 00 05 
0:0:45:3520 Rx 1 186 s 8 20 E0 00 00 3B 00 00 05 
0:0:45:8752 Rx 1 186 s 8 80 DE 00 00 3B 00 00 05 
0:0:46:3984 Rx 1 186 s 8 80 DE 00 00 3B 00 00 05 
0:0:46:9216 Rx 1 186 s 8 80 DE 00 00 3B 00 00 05 
0:0:47:4448 Rx 1 186 s 8 20 E0 00 00 3B 00 00 05 
0:0:47:9680 Rx 1 186 s 8 20 E0 00 00 3B 00 00 05 
0:0:48:4912 Rx 1 186 s 8 80 DE 00 00 3B 00 00 05 
0:0:49:0144 Rx 1 186 s 8 80 DE 00 00 3B 00 00 05 
0:0:49:5375 Rx 1 186 s 8 80 DE 00 00 3B 00 00 05 
0:0:50:0607 Rx 1 186 s 8 F0 DF 00 00 3B 00 00 05 
0:0:50:5839 Rx 1 186 s 8 F0 DF 00 00 3B 00 00 05 
0:0:51:1071 Rx 1 186 s 8 80 DE 00 00 3B 00 00 05 
0:0:51:6303 Rx 1 186 s 8 80 DE 00 00 3B 00 00 05 
0:0:52:1534 Rx 1 186 s 8 80 DE 00 00 3B 00 00 05 
0:0:52:6767 Rx 1 186 s 8 20 E0 00 00 3B 00 00 05 
0:0:53:1998 Rx 1 186 s 8 20 E0 00 00 3B 00 00 05 
0:0:53:7230 Rx 1 186 s 8 80 DE 00 00 3B 00 00 05 
0:0:54:2462 Rx 1 186 s 8 80 DE 00 00 3B 00 00 05 
0:0:54:7693 Rx 1 186 s 8 80 DE 00 00 3B 00 00 05 
0:0:55:2926 Rx 1 186 s 8 20 E0 00 00 3B 00 00 05 
0:0:55:8157 Rx 1 186 s 8 20 E0 00 00 3B 00 00 05 
0:0:56:3389 Rx 1 186 s 8 80 DE 00 00 3B 00 00 05 
0:0:56:8621 Rx 1 186 s 8 80 DE 00 00 3B 00 00 05 
0:0:57:3853 Rx 1 186 s 8 80 DE 00 00 3B 00 00 05 
0:0:57:9085 Rx 1 186 s 8 90 E0 00 00 3B 00 00 05 
0:0:58:4316 Rx 1 186 s 8 90 E0 00 00 3B 00 00 05 
0:0:58:9548 Rx 1 186 s 8 80 DE 00 00 3B 00 00 05 
0:0:59:4780 Rx 1 186 s 8 80 DE 00 00 3B 00 00 05 
0:1:0:0012 Rx 1 186 s 8 80 DE 00 00 3B 00 00 05 
0:1:0:5244 Rx 1 186 s 8 20 E0 00 00 3B 00 00 05 
0:1:1:0476 Rx 1 186 s 8 20 E0 00 00 3B 00 00 05 
0:1:1:5708 Rx 1 186 s 8 80 DE 00 00 3B 00 00 05 
0:1:2:0939 Rx 1 186 s 8 80 DE 00 00 3B 00 00 05 
0:1:2:6171 Rx 1 186 s 8 80 DE 00 00 3B 00 00 05 
0:1:3:1403 Rx 1 186 s 8 00 E0 00 00 3B 00 00 05 
0:1:3:6635 Rx 1 186 s 8 00 E0 00 00 3B 00 00 05 
0:1:4:1867 Rx 1 186 s 8 80 DE 00 00 3B 00 00 05 
0:1:4:7098 Rx 1 186 s 8 80 DE 00 00 3B 00 00 05 
0:1:5:2330 Rx 1 186 s 8 80 DE 00 00 3B 00 00 05 
0:1:5:7562 Rx 1 186 s 8 F0 DF 00 00 3B 00 00 05 
0:1:6:2794 Rx 1 186 s 8 F0 DF 00 00 3B 00 00 05 
0:1:6:8025 Rx 1 186 s 8 80 DE 00 00 3C 00 00 05 
0:1:7:3257 Rx 1 186 s 8 80 DE 00 00 3C 00 00 05 
0:1:7:8489 Rx 1 186 s 8 80 DE 00 00 3C 00 00 05 
0:1:8:3721 Rx 1 186 s 8 F0 DF 00 00 3C 00 00 05 
0:1:8:8953 Rx 1 186 s 8 F0 DF 00 00 3C 00 00 05 
0:1:9:4185 Rx 1 186 s 8 80 DE 00 00 3C 00 00 05 
0:1:9:9417 Rx 1 186 s 8 80 DE 00 00 3C 00 00 05 
0:1:10:4648 Rx 1 186 s 8 80 DE 00 00 3C 00 00 05 
0:1:10:9880 Rx 1 186 s 8 F0 DF 00 00 3C 00 00 05 
0:1:11:5112 Rx 1 186 s 8 F0 DF 00 00 3C 00 00 05 
0:1:12:0344 Rx 1 186 s 8 80 DE 00 00 3C 00 00 05 
0:1:12:5576 Rx 1 186 s 8 80 DE 00 00 3C 00 00 05 
0:1:13:0808 Rx 1 186 s 8 80 DE 00 00 3C 00 00 05 
0:1:13:6040 Rx 1 186 s 8 20 E0 00 00 3C 00 00 05 
0:1:14:1271 Rx 1 186 s 8 20 E0 00 00 3C 00 00 05 
0:1:14:6503 Rx 1 186 s 8 90 DE 00 00 3C 00 00 05 
0:1:15:1735 Rx 1 186 s 8 80 DE 00 00 3C 00 00 05 
0:1:15:6966 Rx 1 186 s 8 A0 DE 00 00 3D 00 00 05 
0:1:16:2198 Rx 1 186 s 8 20 E0 00 00 3D 00 00 05 
0:1:16:7430 Rx 1 186 s 8 20 E0 00 00 3D 00 00 05 
0:1:17:2662 Rx 1 186 s 8 80 DE 00 00 3E 00 00 05 
0:1:17:7893 Rx 1 186 s 8 80 DE 00 00 3E 00 00 05 
0:1:18:3125 Rx 1 186 s 8 80 DE 00 00 3E 00 00 05 
0:1:18:8357 Rx 1 186 s 8 A0 E0 00 00 3F 00 00 05 
0:1:19:3589 Rx 1 186 s 8 A0 E0 00 00 3F 00 00 05 
0:1:19:8821 Rx 1 186 s 8 90 DE 00 00 3F 00 00 05 
0:1:20:4052 Rx 1 186 s 8 90 DE 00 00 3F 00 00 05 
0:1:20:9284 Rx 1 186 s 8 80 DE 00 00 40 00 00 05 
0:1:21:4516 Rx 1 186 s 8 F0 DF 00 00 40 00 00 05 
0:1:21:9747 Rx 1 186 s 8 F0 DF 00 00 40 00 00 05 
0:1:22:4979 Rx 1 186 s 8 80 DE 00 00 40 00 00 05 
0:1:23:0211 Rx 1 186 s 8 80 DE 00 00 40 00 00 05 
0:1:23:5443 Rx 1 186 s 8 80 DE 00 00 40 00 00 05 
0:1:24:0674 Rx 1 186 s 8 F0 DF 00 00 40 00 00 05 
0:1:24:5906 Rx 1 186 s 8 F0 DF 00 00 40 00 00 05 
0:1:25:1138 Rx 1 186 s 8 C0 DE 00 00 40 00 00 05 
0:1:25:6369 Rx 1 186 s 8 80 DE 00 00 40 00 00 05 
0:1:26:1601 Rx 1 186 s 8 80 DE 00 00 40 00 00 05 
0:1:26:6833 Rx 1 186 s 8 00 E0 00 00 40 00 00 05 
0:1:27:2065 Rx 1 186 s 8 00 E0 00 00 40 00 00 05 
0:1:27:7296 Rx 1 186 s 8 80 DE 00 00 40 00 00 05 
0:1:28:2528 Rx 1 186 s 8 90 DE 00 00 40 00 00 05 
0:1:28:7760 Rx 1 186 s 8 90 DE 00 00 40 00 00 05 
0:1:29:2992 Rx 1 186 s 8 20 E0 00 00 40 00 00 05 
0:1:29:8223 Rx 1 186 s 8 20 E0 00 00 40 00 00 05 
0:1:30:3455 Rx 1 186 s 8 A0 DE 00 00 40 00 00 05 
0:1:30:8687 Rx 1 186 s 8 80 DE 00 00 40 00 00 05 
0:1:31:3919 Rx 1 186 s 8 80 DE 00 00 40 00 00 05 
0:1:31:9151 Rx 1 186 s 8 20 E0 00 00 40 00 00 05 
0:1:32:4382 Rx 1 186 s 8 20 E0 00 00 40 00 00 05 
0:1:32:9614 Rx 1 186 s 8 A0 DE 00 00 41 00 00 05 
0:1:33:4846 Rx 1 186 s 8 B0 DE 00 00 41 00 00 05 
0:1:34:0077 Rx 1 186 s 8 80 DE 00 00 41 00 00 05 
0:1:34:5309 Rx 1 186 s 8 F0 DF 00 00 41 00 00 05 
0:1:35:0541 Rx 1 186 s 8 F0 DF 00 00 41 00 00 05 
0:1:35:5773 Rx 1 186 s 8 80 DE 00 00 41 00 00 05 
0:1:36:1004 Rx 1 186 s 8 B0 DE 00 00 41 00 00 05 
0:1:36:6236 Rx 1 186 s 8 80 DE 00 00 41 00 00 05 
0:1:37:1468 Rx 1 186 s 8 F0 DF 00 00 41 00 00 05 
0:1:37:6699 Rx 1 186 s 8 F0 DF 00 00 41 00 00 05 
0:1:38:1931 Rx 1 186 s 8 90 DE 00 00 42 00 00 05 
0:1:38:7162 Rx 1 186 s 8 80 DE 00 00 42 00 00 05 
0:1:39:2394 Rx 1 186 s 8 90 DE 00 00 42 00 00 05 
0:1:39:7626 Rx 1 186 s 8 F0 DF 00 00 42 00 00 05 
0:1:40:2857 Rx 1 186 s 8 F0 DF 00 00 42 00 00 05 
0:1:40:8089 Rx 1 186 s 8 80 DE 00 00 42 00 00 05 
0:1:41:3321 Rx 1 186 s 8 80 DE 00 00 42 00 00 05 
0:1:41:8552 Rx 1 186 s 8 90 DE 00 00 42 00 00 05 
0:1:42:3784 Rx 1 186 s 8 00 E0 00 00 42 00 00 05 
0:1:42:9016 Rx 1 186 s 8 00 E0 00 00 42 00 00 05 
0:1:43:4247 Rx 1 186 s 8 80 DE 00 00 43 00 00 05 
0:1:43:9479 Rx 1 186 s 8 80 DE 00 00 43 00 00 05 
0:1:44:4711 Rx 1 186 s 8 80 DE 00 00 43 00 00 05 
0:1:44:9943 Rx 1 186 s 8 00 E0 00 00 44 00 00 05 
0:1:45:5174 Rx 1 186 s 8 00 E0 00 00 44 00 00 05 
0:1:46:0406 Rx 1 186 s 8 80 DE 00 00 44 00 00 05 
0:1:46:5638 Rx 1 186 s 8 80 DE 00 00 44 00 00 05 
0:1:47:0870 Rx 1 186 s 8 80 DE 00 00 44 00 00 05 
0:1:47:6101 Rx 1 186 s 8 F0 DF 00 00 45 00 00 05 
0:1:48:1333 Rx 1 186 s 8 F0 DF 00 00 45 00 00 05 
0:1:48:6564 Rx 1 186 s 8 90 DE 00 00 45 00 00 05 
0:1:49:1796 Rx 1 186 s 8 90 DE 00 00 45 00 00 05 
0:1:49:7028 Rx 1 186 s 8 90 DE 00 00 45 00 00 05 
0:1:50:2260 Rx 1 186 s 8 00 E0 00 00 45 00 00 05 
0:1:50:7491 Rx 1 186 s 8 00 E0 00 00 45 00 00 05 
0:1:51:2722 Rx 1 186 s 8 90 DE 00 00 46 00 00 05 
0:1:51:7954 Rx 1 186 s 8 90 DE 00 00 46 00 00 05 
0:1:52:3185 Rx 1 186 s 8 80 DE 00 00 46 00 00 05 
0:1:52:8417 Rx 1 186 s 8 20 E0 00 00 47 00 00 05 
0:1:53:3649 Rx 1 186 s 8 20 E0 00 00 47 00 00 05 
0:1:53:8880 Rx 1 186 s 8 80 DE 00 00 47 00 00 05 
0:1:54:4112 Rx 1 186 s 8 80 DE 00 00 47 00 00 05 
0:1:54:9344 Rx 1 186 s 8 80 DE 00 00 47 00 00 05 
0:1:55:4575 Rx 1 186 s 8 20 E0 00 00 48 00 00 05 
0:1:55:9807 Rx 1 186 s 8 20 E0 00 00 48 00 00 05 
0:1:56:5039 Rx 1 186 s 8 80 DE 00 00 48 00 00 05 
0:1:57:0270 Rx 1 186 s 8 80 DE 00 00 48 00 00 05 
0:1:57:5502 Rx 1 186 s 8 A0 DE 00 00 48 00 00 05 
0:1:58:0734 Rx 1 186 s 8 F0 DF 00 00 48 00 00 05 
0:1:58:5965 Rx 1 186 s 8 F0 DF 00 00 48 00 00 05 
0:1:59:1197 Rx 1 186 s 8 80 DE 00 00 48 00 00 05 
0:1:59:6429 Rx 1 186 s 8 A0 DE 00 00 48 00 00 05 
0:2:0:1661 Rx 1 186 s 8 80 DE 00 00 49 00 00 05 
0:2:0:6892 Rx 1 186 s 8 F0 DF 00 00 49 00 00 05 
0:2:1:2124 Rx 1 186 s 8 F0 DF 00 00 49 00 00 05 
0:2:1:7356 Rx 1 186 s 8 80 DE 00 00 49 00 00 05 
0:2:2:2587 Rx 1 186 s 8 80 DE 00 00 49 00 00 05 
0:2:2:7819 Rx 1 186 s 8 90 DE 00 00 49 00 00 05 
0:2:3:3051 Rx 1 186 s 8 20 E0 00 00 49 00 00 05 
0:2:3:8283 Rx 1 186 s 8 20 E0 00 00 49 00 00 05 
0:2:4:3515 Rx 1 186 s 8 80 DE 00 00 4A 00 00 05 
0:2:4:8746 Rx 1 186 s 8 90 DE 00 00 4A 00 00 05 
0:2:5:3978 Rx 1 186 s 8 90 DE 00 00 4A 00 00 05 
0:2:5:9210 Rx 1 186 s 8 F0 DF 00 00 4B 00 00 05 
0:2:6:4442 Rx 1 186 s 8 F0 DF 00 00 4B 00 00 05 
0:2:6:9674 Rx 1 186 s 8 A0 DE 00 00 4B 00 00 05 
0:2:7:4906 Rx 1 186 s 8 80 DE 00 00 4B 00 00 05 
0:2:8:0137 Rx 1 186 s 8 80 DE 00 00 4B 00 00 05 
0:2:8:5369 Rx 1 186 s 8 20 E0 00 00 4B 00 00 05 
0:2:9:0601 Rx 1 186 s 8 20 E0 00 00 4B 00 00 05 
0:2:9:5833 Rx 1 186 s 8 80 DE 00 00 4B 00 00 05 
0:2:10:1065 Rx 1 186 s 8 80 DE 00 00 4B 00 00 05 
0:2:10:6297 Rx 1 186 s 8 80 DE 00 00 4B 00 00 05 
0:2:11:1528 Rx 1 186 s 8 A0 E0 00 00 4C 00 00 05 
0:2:11:6760 Rx 1 186 s 8 A0 E0 00 00 4C 00 00 05 
0:2:12:1992 Rx 1 186 s 8 80 DE 00 00 4C 00 00 05 
0:2:12:7224 Rx 1 186 s 8 80 DE 00 00 4C 00 00 05 
0:2:13:2455 Rx 1 186 s 8 A0 DE 00 00 4C 00 00 05 
0:2:13:7687 Rx 1 186 s 8 20 E0 00 00 4C 00 00 05 
0:2:14:2919 Rx 1 186 s 8 20 E0 00 00 4C 00 00 05 
0:2:14:8151 Rx 1 186 s 8 A0 DE 00 00 4C 00 00 05 
0:2:15:3383 Rx 1 186 s 8 90 DE 00 00 4C 00 00 05 
0:2:15:8614 Rx 1 186 s 8 80 DE 00 00 4C 00 00 05 
0:2:16:3847 Rx 1 186 s 8 00 E0 00 00 4C 00 00 05 
0:2:16:9078 Rx 1 186 s 8 00 E0 00 00 4C 00 00 05 
0:2:17:4310 Rx 1 186 s 8 90 DE 00 00 4D 00 00 05 
0:2:17:9542 Rx 1 186 s 8 90 DE 00 00 4D 00 00 05 
0:2:18:4774 Rx 1 186 s 8 80 DE 00 00 4D 00 00 05 
0:2:19:0005 Rx 1 186 s 8 F0 DF 00 00 4E 00 00 05 
0:2:19:5237 Rx 1 186 s 8 F0 DF 00 00 4E 00 00 05 
0:2:20:0469 Rx 1 186 s 8 90 DE 00 00 4E 00 00 05 
0:2:20:5701 Rx 1 186 s 8 80 DE 00 00 4E 00 00 05 
0:2:21:0933 Rx 1 186 s 8 90 DE 00 00 4E 00 00 05 
0:2:21:6165 Rx 1 186 s 8 F0 DF 00 00 4F 00 00 05 
0:2:22:1396 Rx 1 186 s 8 F0 DF 00 00 4F 00 00 05 
0:2:22:6628 Rx 1 186 s 8 90 DE 00 00 4F 00 00 05 
0:2:23:1860 Rx 1 186 s 8 80 DE 00 00 4F 00 00 05 
0:2:23:7092 Rx 1 186 s 8 80 DE 00 00 50 00 00 05 
0:2:24:2324 Rx 1 186 s 8 20 E0 00 00 50 00 00 05 
0:2:24:7555 Rx 1 186 s 8 20 E0 00 00 50 00 00 05 
0:2:25:2787 Rx 1 186 s 8 90 DE 00 00 50 00 00 05 
0:2:25:8019 Rx 1 186 s 8 A0 DE 00 00 50 00 00 05 
0:2:26:3250 Rx 1 186 s 8 80 DE 00 00 50 00 00 05 
0:2:26:8482 Rx 1 186 s 8 20 E0 00 00 50 00 00 05 
0:2:27:3714 Rx 1 186 s 8 20 E0 00 00 50 00 00 05 
0:2:27:8946 Rx 1 186 s 8 80 DE 00 00 51 00 00 05 
0:2:28:4177 Rx 1 186 s 8 D0 DE 00 00 51 00 00 05 
0:2:28:9409 Rx 1 186 s 8 A0 DE 00 00 52 00 00 05 
0:2:29:4641 Rx 1 186 s 8 30 E0 00 00 52 00 00 05 
0:2:29:9872 Rx 1 186 s 8 30 E0 00 00 52 00 00 05 
0:2:30:5104 Rx 1 186 s 8 80 DE 00 00 52 00 00 05 
0:2:31:0335 Rx 1 186 s 8 90 DE 00 00 52 00 00 05 
***END DATE AND TIME ***
***[STOP LOGGING SESSION]***
